T1A14 25130:968 SEGGER J-Link V6.50a Log File (0001ms, 11182ms total)
T1A14 25130:968 DLL Compiled: Aug 26 2019 10:16:19 (0001ms, 11182ms total)
T1A14 25130:968 Logging started @ 2019-09-07 23:02 (0001ms, 11182ms total)
T1A14 25130:969 JLINK_SetWarnOutHandler(...) (0000ms, 11182ms total)
T1A14 25130:969 JLINK_OpenEx(...)
Firmware: J-Link ARM V8 compiled Nov 28 2014 13:44:46
Hardware: V8.00
S/N: 268003384
OEM: SEGGER-EDU
Feature(s): FlashBP, GDB
TELNET listener socket opened on port 19021WEBSRV 
Starting webserver (0039ms, 11221ms total)
T1A14 25130:969 WEBSRV Webserver running on local port 19080 (0039ms, 11221ms total)
T1A14 25130:969   returns O.K. (0039ms, 11221ms total)
T1A14 25131:008 JLINK_GetEmuCaps()  returns 0xB9FF7BBF (0000ms, 11221ms total)
T1A14 25131:009 JLINK_TIF_GetAvailable(...) (0000ms, 11221ms total)
T1A14 25131:009 JLINK_SetErrorOutHandler(...) (0000ms, 11221ms total)
T1A14 25131:009 JLINK_ExecCommand("ProjectFile = "C:\Users\Roland\source\VSCode_LPC1113\LPC1113_GCC_VSCode_Uart\build\JLinkSettings.ini"", ...).   returns 0x00 (0002ms, 11223ms total)
T1A14 25131:011 JLINK_ExecCommand("Device = LPC1113FBD48/301", ...). Device "LPC1113/301" selected.  returns 0x00 (0001ms, 11224ms total)
T1A14 25131:012 JLINK_ExecCommand("DisableConnectionTimeout", ...).   returns 0x01 (0000ms, 11224ms total)
T1A14 25131:012 JLINK_GetHardwareVersion()  returns 0x13880 (0000ms, 11224ms total)
T1A14 25131:012 JLINK_GetDLLVersion()  returns 65001 (0000ms, 11224ms total)
T1A14 25131:012 JLINK_GetDLLVersion()  returns 65001 (0000ms, 11224ms total)
T1A14 25131:012 JLINK_GetCompileDateTime() (0000ms, 11224ms total)
T1A14 25131:012 JLINK_GetFirmwareString(...) (0000ms, 11224ms total)
T1A14 25131:012 JLINK_GetHardwareVersion()  returns 0x13880 (0000ms, 11224ms total)
T1A14 25131:012 JLINK_TIF_Select(JLINKARM_TIF_SWD)  returns 0x00 (0001ms, 11225ms total)
T1A14 25131:013 JLINK_SetSpeed(2000) (0000ms, 11225ms total)
T1A14 25131:013 JLINK_GetId() >0x10B TIF>Found SW-DP with ID 0x0BB11477 >0x0D TIF> >0x28 TIF> >0x0D TIF> >0x28 TIF> >0x0D TIF> >0x28 TIF> >0x0D TIF> >0x28 TIF> >0x0D TIF> >0x21 TIF> >0x0D TIF> >0x28 TIF>Scanning AP map to find all available APs >0x0D TIF> >0x28 TIF> >0x0D TIF> >0x21 TIF> >0x0D TIF> >0x21 TIF> >0x0D TIF> >0x28 TIF> >0x0D TIF> >0x21 TIF> >0x0D TIF> >0x21 TIF>AP[1]: Stopped AP scan as end of AP map has been reachedAP[0]: AHB-AP (IDR: 0x04770021)Iterating through AP map to find AHB-AP to use
 >0x42 TIF> >0x28 TIF> >0x0D TIF> >0x28 TIF> >0x0D TIF> >0x21 TIF> >0x0D TIF> >0x21 TIF> >0x42 TIF> >0x28 TIF> >0x0D TIF> >0x28 TIF> >0x0D TIF> >0x28 TIF> >0x0D TIF> >0x21 TIF> >0x0D TIF> >0x21 TIF>AP[0]: Core foundAP[0]: AHB-AP ROM base: 0xE00FF000 >0x0D TIF> >0x28 TIF> >0x0D TIF> >0x28 TIF> >0x0D TIF> >0x28 TIF> >0x0D TIF> >0x21 TIF> >0x0D TIF> >0x21 TIF>CPUID register: 0x410CC200. Implementer code: 0x41 (ARM)Found Cortex-M0 r0p0, Little endian. -- Max. mem block: 0x00002408
 -- CPU_ReadMem(4 bytes @ 0xE000EDF0) -- CPU_WriteMem(4 bytes @ 0xE000EDF0) -- CPU_ReadMem(4 bytes @ 0xE0002000)FPUnit: 4 code (BP) slots and 0 literal slots -- CPU_ReadMem(4 bytes @ 0xE000EDFC) -- CPU_WriteMem(4 bytes @ 0xE000EDFC) -- CPU_ReadMem(4 bytes @ 0xE0001000) -- CPU_WriteMem(4 bytes @ 0xE0001000)CoreSight components:ROMTbl[0] @ E00FF000 -- CPU_ReadMem(16 bytes @ 0xE00FF000) -- CPU_ReadMem(16 bytes @ 0xE000EFF0) -- CPU_ReadMem(16 bytes @ 0xE000EFE0)
ROMTbl[0][0]: E000E000, CID: B105E00D, PID: 000BB008 SCS -- CPU_ReadMem(16 bytes @ 0xE0001FF0) -- CPU_ReadMem(16 bytes @ 0xE0001FE0)ROMTbl[0][1]: E0001000, CID: B105E00D, PID: 000BB00A DWT -- CPU_ReadMem(16 bytes @ 0xE0002FF0) -- CPU_ReadMem(16 bytes @ 0xE0002FE0)ROMTbl[0][2]: E0002000, CID: B105E00D, PID: 000BB00B FPB >0x0D TIF> >0x21 TIF>  returns 0x0BB11477 (0139ms, 11364ms total)
T1A14 25131:152 JLINK_GetDLLVersion()  returns 65001 (0000ms, 11364ms total)
T1A14 25131:152 JLINK_CORE_GetFound()  returns 0x60000FF (0000ms, 11364ms total)
T1A14 25131:152 JLINK_GetDebugInfo(0x100 = JLINKARM_ROM_TABLE_ADDR_INDEX) -- Value=0xE00FF000  returns 0x00 (0000ms, 11364ms total)
T1A14 25131:152 JLINK_GetDebugInfo(0x100 = JLINKARM_ROM_TABLE_ADDR_INDEX) -- Value=0xE00FF000  returns 0x00 (0000ms, 11364ms total)
T1A14 25131:152 JLINK_GetDebugInfo(0x101 = JLINKARM_DEBUG_INFO_ETM_ADDR_INDEX) -- Value=0x00000000  returns 0x00 (0000ms, 11364ms total)
T1A14 25131:152 JLINK_ReadMemEx(0xE0041FF0, 0x0010 Bytes, ..., Flags = 0x02000004) -- CPU_ReadMem(16 bytes @ 0xE0041FF0) - Data: 00 00 00 00 00 00 00 00 00 00 00 00 00 00 00 00  returns 0x10 (0001ms, 11365ms total)
T1A14 25131:153 JLINK_GetDebugInfo(0x102 = JLINKARM_DEBUG_INFO_MTB_ADDR_INDEX) -- Value=0x00000000  returns 0x00 (0000ms, 11365ms total)
T1A14 25131:153 JLINK_GetDebugInfo(0x103 = JLINKARM_DEBUG_INFO_TPIU_ADDR_INDEX) -- Value=0x00000000  returns 0x00 (0000ms, 11365ms total)
T1A14 25131:153 JLINK_ReadMemEx(0xE0040FF0, 0x0010 Bytes, ..., Flags = 0x02000004) -- CPU_ReadMem(16 bytes @ 0xE0040FF0) - Data: 00 00 00 00 00 00 00 00 00 00 00 00 00 00 00 00  returns 0x10 (0001ms, 11366ms total)
T1A14 25131:154 JLINK_GetDebugInfo(0x104 = JLINKARM_DEBUG_INFO_ITM_ADDR_INDEX) -- Value=0xE0000000  returns 0x00 (0000ms, 11366ms total)
T1A14 25131:154 JLINK_GetDebugInfo(0x105 = JLINKARM_DEBUG_INFO_DWT_ADDR_INDEX) -- Value=0xE0001000  returns 0x00 (0000ms, 11366ms total)
T1A14 25131:154 JLINK_GetDebugInfo(0x106 = JLINKARM_DEBUG_INFO_FPB_ADDR_INDEX) -- Value=0xE0002000  returns 0x00 (0000ms, 11366ms total)
T1A14 25131:154 JLINK_GetDebugInfo(0x107 = JLINKARM_DEBUG_INFO_NVIC_ADDR_INDEX) -- Value=0xE000E000  returns 0x00 (0000ms, 11366ms total)
T1A14 25131:154 JLINK_GetDebugInfo(0x10C = JLINKARM_DEBUG_INFO_DBG_ADDR_INDEX) -- Value=0xE000EDF0  returns 0x00 (0000ms, 11366ms total)
T1A14 25131:154 JLINK_GetDebugInfo(0x01 = Unknown) -- Value=0x00000000  returns 0x00 (0000ms, 11366ms total)
T1A14 25131:154 JLINK_ReadMemU32(0xE000ED00, 0x0001 Items, ...) -- CPU_ReadMem(4 bytes @ 0xE000ED00) - Data: 00 C2 0C 41  returns 1 (0001ms, 11367ms total)
T1A14 25131:155 JLINK_GetDebugInfo(0x10F = JLINKARM_DEBUG_INFO_HAS_CORTEX_M_SECURITY_EXT_INDEX) -- Value=0x00000000  returns 0x00 (0000ms, 11367ms total)
T1A14 25131:155 JLINK_SetResetType(JLINKARM_CM3_RESET_TYPE_NORMAL)  returns JLINKARM_CM3_RESET_TYPE_NORMAL (0000ms, 11367ms total)
T1A14 25131:155 JLINK_Reset() -- CPU is running -- CPU_WriteMem(4 bytes @ 0xE000EDF0) -- CPU is running -- CPU_WriteMem(4 bytes @ 0xE000EDFC)Reset: Halt core after reset via DEMCR.VC_CORERESET. >0x35 TIF>Reset: Reset device via AIRCR.SYSRESETREQ. -- CPU is running -- CPU_WriteMem(4 bytes @ 0xE000ED0C) >0x0D TIF> >0x28 TIF> -- CPU_ReadMem(4 bytes @ 0xE000EDF0) -- CPU_ReadMem(4 bytes @ 0xE000EDF0) -- CPU is running -- CPU_WriteMem(4 bytes @ 0xE000EDF0) -- CPU is running
 -- CPU_WriteMem(4 bytes @ 0xE000EDFC) -- CPU_ReadMem(4 bytes @ 0xE000EDF0) -- CPU_WriteMem(4 bytes @ 0xE0002000) -- CPU_ReadMem(4 bytes @ 0xE000EDFC) -- CPU_ReadMem(4 bytes @ 0xE0001000) -- CPU_WriteMem(4 bytes @ 0xE0001000) (0081ms, 11448ms total)
T1A14 25131:236 JLINK_ReadReg(R15 (PC))  returns 0x1FFF0040 (0000ms, 11448ms total)
T1A14 25131:236 JLINK_ReadReg(XPSR)  returns 0xC1000000 (0000ms, 11448ms total)
T1A14 25131:236 JLINK_Halt()  returns 0x00 (0000ms, 11448ms total)
T1A14 25131:236 JLINK_ReadMemU32(0xE000EDF0, 0x0001 Items, ...) -- CPU_ReadMem(4 bytes @ 0xE000EDF0) - Data: 03 00 03 00  returns 1 (0001ms, 11449ms total)
T1A14 25131:237 JLINK_WriteU32(0xE000EDF0, 0xA05F0003) -- CPU_WriteMem(4 bytes @ 0xE000EDF0)  returns 0 (0001ms, 11450ms total)
T1A14 25131:238 JLINK_WriteU32(0xE000EDFC, 0x01000000) -- CPU_WriteMem(4 bytes @ 0xE000EDFC)  returns 0 (0001ms, 11451ms total)
T1A14 25131:240 JLINK_GetHWStatus(...)  returns 0x00 (0000ms, 11451ms total)
T1A14 25131:240 JLINK_GetNumBPUnits(Type = 0xFFFFFF00)  returns 0x04 (0000ms, 11451ms total)
T1A14 25131:240 JLINK_GetNumBPUnits(Type = 0xF0)  returns 0x2000 (0000ms, 11451ms total)
T1A14 25131:240 JLINK_GetNumWPUnits()  returns 0x02 (0000ms, 11451ms total)
T1A14 25131:241 JLINK_GetSpeed()  returns 0x7D0 (0000ms, 11451ms total)
T1A14 25131:241 JLINK_ReadMemU32(0xE000E004, 0x0001 Items, ...) -- CPU_ReadMem(4 bytes @ 0xE000E004) - Data: 00 00 00 00  returns 1 (0001ms, 11452ms total)
T1A14 25131:242 JLINK_ReadReg(R15 (PC))  returns 0x1FFF0040 (0000ms, 11452ms total)
T1A14 25131:242 JLINK_ReadReg(XPSR)  returns 0xC1000000 (0000ms, 11452ms total)
T1A14 25132:486 JLINK_ReadReg(R0)  returns 0x00080000 (0001ms, 11453ms total)
T1A14 25132:487 JLINK_ReadReg(R1)  returns 0x0001085F (0000ms, 11453ms total)
T1A14 25132:487 JLINK_ReadReg(R2)  returns 0x00000000 (0000ms, 11453ms total)
T1A14 25132:487 JLINK_ReadReg(R3)  returns 0x40008000 (0000ms, 11453ms total)
T1A14 25132:487 JLINK_ReadReg(R4)  returns 0x00017B50 (0000ms, 11453ms total)
T1A14 25132:488 JLINK_ReadMemEx(0x1FFF0040, 0x003C Bytes, ..., Flags = 0x02000000) -- CPU_ReadMem(60 bytes @ 0x1FFF0040) - Data: 00 4A 10 47 49 00 FF 1F 1A 4A 1B 4B 1B 68 1C 4D ...  returns 0x3C (0001ms, 11454ms total)
T1A14 25132:489 JLINK_ReadMemEx(0x1FFF0040, 0x0002 Bytes, ..., Flags = 0x02000000) -- CPU_ReadMem(2 bytes @ 0x1FFF0040) - Data: 00 4A  returns 0x02 (0001ms, 11455ms total)
T1A14 25132:490 JLINK_ReadMemEx(0x1FFF0042, 0x0002 Bytes, ..., Flags = 0x02000000) -- CPU_ReadMem(2 bytes @ 0x1FFF0042) - Data: 10 47  returns 0x02 (0001ms, 11456ms total)
T1A14 25132:491 JLINK_ReadMemEx(0x1FFF0042, 0x0002 Bytes, ..., Flags = 0x02000000) -- CPU_ReadMem(2 bytes @ 0x1FFF0042) - Data: 10 47  returns 0x02 (0001ms, 11457ms total)
T1A14 25132:492 JLINK_ReadMemEx(0x1FFF0044, 0x003C Bytes, ..., Flags = 0x02000000) -- CPU_ReadMem(60 bytes @ 0x1FFF0044) - Data: 49 00 FF 1F 1A 4A 1B 4B 1B 68 1C 4D 2D 68 1C 4E ...  returns 0x3C (0001ms, 11458ms total)
T1A14 25132:493 JLINK_ReadMemEx(0x1FFF0044, 0x0002 Bytes, ..., Flags = 0x02000000) -- CPU_ReadMem(2 bytes @ 0x1FFF0044) - Data: 49 00  returns 0x02 (0001ms, 11459ms total)
T1A14 25132:494 JLINK_ReadMemEx(0x1FFF0044, 0x003C Bytes, ..., Flags = 0x02000000) -- CPU_ReadMem(60 bytes @ 0x1FFF0044) - Data: 49 00 FF 1F 1A 4A 1B 4B 1B 68 1C 4D 2D 68 1C 4E ...  returns 0x3C (0002ms, 11461ms total)
T1A14 25132:496 JLINK_ReadMemEx(0x1FFF0044, 0x0002 Bytes, ..., Flags = 0x02000000) -- CPU_ReadMem(2 bytes @ 0x1FFF0044) - Data: 49 00  returns 0x02 (0000ms, 11461ms total)
T1A14 25132:496 JLINK_ReadMemEx(0x1FFF0046, 0x0002 Bytes, ..., Flags = 0x02000000) -- CPU_ReadMem(2 bytes @ 0x1FFF0046) - Data: FF 1F  returns 0x02 (0001ms, 11462ms total)
T1A14 25132:497 JLINK_ReadMemEx(0x1FFF0046, 0x0002 Bytes, ..., Flags = 0x02000000) -- CPU_ReadMem(2 bytes @ 0x1FFF0046) - Data: FF 1F  returns 0x02 (0002ms, 11464ms total)
T1A14 25132:499 JLINK_ReadMemEx(0x1FFF0048, 0x003C Bytes, ..., Flags = 0x02000000) -- CPU_ReadMem(60 bytes @ 0x1FFF0048) - Data: 1A 4A 1B 4B 1B 68 1C 4D 2D 68 1C 4E 36 68 1C 68 ...  returns 0x3C (0001ms, 11465ms total)
T1A14 25132:500 JLINK_ReadMemEx(0x1FFF0048, 0x0002 Bytes, ..., Flags = 0x02000000) -- CPU_ReadMem(2 bytes @ 0x1FFF0048) - Data: 1A 4A  returns 0x02 (0001ms, 11466ms total)
T1A14 25132:501 JLINK_ReadMemEx(0x1FFF0048, 0x003C Bytes, ..., Flags = 0x02000000) -- CPU_ReadMem(60 bytes @ 0x1FFF0048) - Data: 1A 4A 1B 4B 1B 68 1C 4D 2D 68 1C 4E 36 68 1C 68 ...  returns 0x3C (0001ms, 11467ms total)
T1A14 25132:502 JLINK_ReadMemEx(0x1FFF0048, 0x0002 Bytes, ..., Flags = 0x02000000) -- CPU_ReadMem(2 bytes @ 0x1FFF0048) - Data: 1A 4A  returns 0x02 (0001ms, 11468ms total)
T1A14 25132:503 JLINK_ReadMemEx(0x1FFF004A, 0x0002 Bytes, ..., Flags = 0x02000000) -- CPU_ReadMem(2 bytes @ 0x1FFF004A) - Data: 1B 4B  returns 0x02 (0000ms, 11468ms total)
T1A14 25132:503 JLINK_ReadMemEx(0x1FFF004A, 0x0002 Bytes, ..., Flags = 0x02000000) -- CPU_ReadMem(2 bytes @ 0x1FFF004A) - Data: 1B 4B  returns 0x02 (0001ms, 11469ms total)
T1A14 25132:504 JLINK_ReadMemEx(0x1FFF004C, 0x003C Bytes, ..., Flags = 0x02000000) -- CPU_ReadMem(60 bytes @ 0x1FFF004C) - Data: 1B 68 1C 4D 2D 68 1C 4E 36 68 1C 68 AC 42 01 D0 ...  returns 0x3C (0002ms, 11471ms total)
T1A14 25132:506 JLINK_ReadMemEx(0x1FFF004C, 0x0002 Bytes, ..., Flags = 0x02000000) -- CPU_ReadMem(2 bytes @ 0x1FFF004C) - Data: 1B 68  returns 0x02 (0000ms, 11471ms total)
T1A14 25132:506 JLINK_ReadMemEx(0x1FFF004C, 0x003C Bytes, ..., Flags = 0x02000000) -- CPU_ReadMem(60 bytes @ 0x1FFF004C) - Data: 1B 68 1C 4D 2D 68 1C 4E 36 68 1C 68 AC 42 01 D0 ...  returns 0x3C (0002ms, 11473ms total)
T1A14 25132:508 JLINK_ReadMemEx(0x1FFF004C, 0x0002 Bytes, ..., Flags = 0x02000000) -- CPU_ReadMem(2 bytes @ 0x1FFF004C) - Data: 1B 68  returns 0x02 (0000ms, 11473ms total)
T1A14 25132:508 JLINK_ReadMemEx(0x1FFF004E, 0x0002 Bytes, ..., Flags = 0x02000000) -- CPU_ReadMem(2 bytes @ 0x1FFF004E) - Data: 1C 4D  returns 0x02 (0001ms, 11474ms total)
T1A14 25132:509 JLINK_ReadMemEx(0x1FFF004E, 0x0002 Bytes, ..., Flags = 0x02000000) -- CPU_ReadMem(2 bytes @ 0x1FFF004E) - Data: 1C 4D  returns 0x02 (0001ms, 11475ms total)
T1A14 25132:510 JLINK_ReadMemEx(0x1FFF0050, 0x003C Bytes, ..., Flags = 0x02000000) -- CPU_ReadMem(60 bytes @ 0x1FFF0050) - Data: 2D 68 1C 4E 36 68 1C 68 AC 42 01 D0 B4 42 01 D1 ...  returns 0x3C (0001ms, 11476ms total)
T1A14 25132:511 JLINK_ReadMemEx(0x1FFF0050, 0x0002 Bytes, ..., Flags = 0x02000000) -- CPU_ReadMem(2 bytes @ 0x1FFF0050) - Data: 2D 68  returns 0x02 (0001ms, 11477ms total)
T1A14 25132:512 JLINK_ReadMemEx(0x1FFF0050, 0x003C Bytes, ..., Flags = 0x02000000) -- CPU_ReadMem(60 bytes @ 0x1FFF0050) - Data: 2D 68 1C 4E 36 68 1C 68 AC 42 01 D0 B4 42 01 D1 ...  returns 0x3C (0001ms, 11478ms total)
T1A14 25132:513 JLINK_ReadMemEx(0x1FFF0050, 0x0002 Bytes, ..., Flags = 0x02000000) -- CPU_ReadMem(2 bytes @ 0x1FFF0050) - Data: 2D 68  returns 0x02 (0001ms, 11479ms total)
T1A14 25132:514 JLINK_ReadMemEx(0x1FFF0052, 0x0002 Bytes, ..., Flags = 0x02000000) -- CPU_ReadMem(2 bytes @ 0x1FFF0052) - Data: 1C 4E  returns 0x02 (0000ms, 11479ms total)
T1A14 25132:514 JLINK_ReadMemEx(0x1FFF0052, 0x0002 Bytes, ..., Flags = 0x02000000) -- CPU_ReadMem(2 bytes @ 0x1FFF0052) - Data: 1C 4E  returns 0x02 (0001ms, 11480ms total)
T1A14 25132:515 JLINK_ReadMemEx(0x1FFF0054, 0x003C Bytes, ..., Flags = 0x02000000) -- CPU_ReadMem(60 bytes @ 0x1FFF0054) - Data: 36 68 1C 68 AC 42 01 D0 B4 42 01 D1 16 4C 24 68 ...  returns 0x3C (0002ms, 11482ms total)
T1A14 25132:517 JLINK_ReadMemEx(0x1FFF0054, 0x0002 Bytes, ..., Flags = 0x02000000) -- CPU_ReadMem(2 bytes @ 0x1FFF0054) - Data: 36 68  returns 0x02 (0000ms, 11482ms total)
T1A14 25132:517 JLINK_ReadMemEx(0x1FFF0054, 0x003C Bytes, ..., Flags = 0x02000000) -- CPU_ReadMem(60 bytes @ 0x1FFF0054) - Data: 36 68 1C 68 AC 42 01 D0 B4 42 01 D1 16 4C 24 68 ...  returns 0x3C (0002ms, 11484ms total)
T1A14 25132:519 JLINK_ReadMemEx(0x1FFF0054, 0x0002 Bytes, ..., Flags = 0x02000000) -- CPU_ReadMem(2 bytes @ 0x1FFF0054) - Data: 36 68  returns 0x02 (0000ms, 11484ms total)
T1A14 25132:519 JLINK_ReadMemEx(0x1FFF0056, 0x0002 Bytes, ..., Flags = 0x02000000) -- CPU_ReadMem(2 bytes @ 0x1FFF0056) - Data: 1C 68  returns 0x02 (0001ms, 11485ms total)
T1A14 25132:520 JLINK_ReadMemEx(0x1FFF0056, 0x0002 Bytes, ..., Flags = 0x02000000) -- CPU_ReadMem(2 bytes @ 0x1FFF0056) - Data: 1C 68  returns 0x02 (0001ms, 11486ms total)
T1A14 25132:521 JLINK_ReadMemEx(0x1FFF0058, 0x003C Bytes, ..., Flags = 0x02000000) -- CPU_ReadMem(60 bytes @ 0x1FFF0058) - Data: AC 42 01 D0 B4 42 01 D1 16 4C 24 68 14 60 0D 4A ...  returns 0x3C (0001ms, 11487ms total)
T1A14 25132:522 JLINK_ReadMemEx(0x1FFF0058, 0x0002 Bytes, ..., Flags = 0x02000000) -- CPU_ReadMem(2 bytes @ 0x1FFF0058) - Data: AC 42  returns 0x02 (0001ms, 11488ms total)
T1A14 25132:523 JLINK_ReadMemEx(0x1FFF0058, 0x003C Bytes, ..., Flags = 0x02000000) -- CPU_ReadMem(60 bytes @ 0x1FFF0058) - Data: AC 42 01 D0 B4 42 01 D1 16 4C 24 68 14 60 0D 4A ...  returns 0x3C (0001ms, 11489ms total)
T1A14 25132:524 JLINK_ReadMemEx(0x1FFF0058, 0x0002 Bytes, ..., Flags = 0x02000000) -- CPU_ReadMem(2 bytes @ 0x1FFF0058) - Data: AC 42  returns 0x02 (0001ms, 11490ms total)
T1A14 25132:525 JLINK_ReadMemEx(0x1FFF005A, 0x0002 Bytes, ..., Flags = 0x02000000) -- CPU_ReadMem(2 bytes @ 0x1FFF005A) - Data: 01 D0  returns 0x02 (0001ms, 11491ms total)
T1A14 25132:526 JLINK_ReadMemEx(0x1FFF005A, 0x0002 Bytes, ..., Flags = 0x02000000) -- CPU_ReadMem(2 bytes @ 0x1FFF005A) - Data: 01 D0  returns 0x02 (0000ms, 11491ms total)
T1A14 25132:526 JLINK_ReadMemEx(0x1FFF005C, 0x003C Bytes, ..., Flags = 0x02000000) -- CPU_ReadMem(60 bytes @ 0x1FFF005C) - Data: B4 42 01 D1 16 4C 24 68 14 60 0D 4A 13 68 40 24 ...  returns 0x3C (0002ms, 11493ms total)
T1A14 25132:528 JLINK_ReadMemEx(0x1FFF005C, 0x0002 Bytes, ..., Flags = 0x02000000) -- CPU_ReadMem(2 bytes @ 0x1FFF005C) - Data: B4 42  returns 0x02 (0000ms, 11493ms total)
T1A14 25132:528 JLINK_ReadMemEx(0x1FFF005C, 0x003C Bytes, ..., Flags = 0x02000000) -- CPU_ReadMem(60 bytes @ 0x1FFF005C) - Data: B4 42 01 D1 16 4C 24 68 14 60 0D 4A 13 68 40 24 ...  returns 0x3C (0002ms, 11495ms total)
T1A14 25132:530 JLINK_ReadMemEx(0x1FFF005C, 0x0002 Bytes, ..., Flags = 0x02000000) -- CPU_ReadMem(2 bytes @ 0x1FFF005C) - Data: B4 42  returns 0x02 (0000ms, 11495ms total)
T1A14 25132:530 JLINK_ReadMemEx(0x1FFF005E, 0x0002 Bytes, ..., Flags = 0x02000000) -- CPU_ReadMem(2 bytes @ 0x1FFF005E) - Data: 01 D1  returns 0x02 (0001ms, 11496ms total)
T1A14 25132:531 JLINK_ReadMemEx(0x1FFF005E, 0x0002 Bytes, ..., Flags = 0x02000000) -- CPU_ReadMem(2 bytes @ 0x1FFF005E) - Data: 01 D1  returns 0x02 (0001ms, 11497ms total)
T1A14 25132:532 JLINK_ReadMemEx(0x1FFF0060, 0x003C Bytes, ..., Flags = 0x02000000) -- CPU_ReadMem(60 bytes @ 0x1FFF0060) - Data: 16 4C 24 68 14 60 0D 4A 13 68 40 24 23 43 13 60 ...  returns 0x3C (0001ms, 11498ms total)
T1A14 25132:533 JLINK_ReadMemEx(0x1FFF0060, 0x0002 Bytes, ..., Flags = 0x02000000) -- CPU_ReadMem(2 bytes @ 0x1FFF0060) - Data: 16 4C  returns 0x02 (0001ms, 11499ms total)
T1A14 25132:534 JLINK_ReadMemEx(0x1FFF0060, 0x003C Bytes, ..., Flags = 0x02000000) -- CPU_ReadMem(60 bytes @ 0x1FFF0060) - Data: 16 4C 24 68 14 60 0D 4A 13 68 40 24 23 43 13 60 ...  returns 0x3C (0001ms, 11500ms total)
T1A14 25132:535 JLINK_ReadMemEx(0x1FFF0060, 0x0002 Bytes, ..., Flags = 0x02000000) -- CPU_ReadMem(2 bytes @ 0x1FFF0060) - Data: 16 4C  returns 0x02 (0001ms, 11501ms total)
T1A14 25132:536 JLINK_ReadMemEx(0x1FFF0062, 0x0002 Bytes, ..., Flags = 0x02000000) -- CPU_ReadMem(2 bytes @ 0x1FFF0062) - Data: 24 68  returns 0x02 (0000ms, 11501ms total)
T1A14 25132:536 JLINK_ReadMemEx(0x1FFF0062, 0x0002 Bytes, ..., Flags = 0x02000000) -- CPU_ReadMem(2 bytes @ 0x1FFF0062) - Data: 24 68  returns 0x02 (0001ms, 11502ms total)
T1A14 25132:537 JLINK_ReadMemEx(0x1FFF0064, 0x003C Bytes, ..., Flags = 0x02000000) -- CPU_ReadMem(60 bytes @ 0x1FFF0064) - Data: 14 60 0D 4A 13 68 40 24 23 43 13 60 0B 4B 1A 68 ...  returns 0x3C (0002ms, 11504ms total)
T1A14 25132:539 JLINK_ReadMemEx(0x1FFF0064, 0x0002 Bytes, ..., Flags = 0x02000000) -- CPU_ReadMem(2 bytes @ 0x1FFF0064) - Data: 14 60  returns 0x02 (0000ms, 11504ms total)
T1A14 25132:539 JLINK_ReadMemEx(0x1FFF0064, 0x003C Bytes, ..., Flags = 0x02000000) -- CPU_ReadMem(60 bytes @ 0x1FFF0064) - Data: 14 60 0D 4A 13 68 40 24 23 43 13 60 0B 4B 1A 68 ...  returns 0x3C (0002ms, 11506ms total)
T1A14 25132:541 JLINK_ReadMemEx(0x1FFF0064, 0x0002 Bytes, ..., Flags = 0x02000000) -- CPU_ReadMem(2 bytes @ 0x1FFF0064) - Data: 14 60  returns 0x02 (0001ms, 11507ms total)
T1A14 25132:542 JLINK_ReadMemEx(0x1FFF0066, 0x0002 Bytes, ..., Flags = 0x02000000) -- CPU_ReadMem(2 bytes @ 0x1FFF0066) - Data: 0D 4A  returns 0x02 (0000ms, 11507ms total)
T1A14 25132:542 JLINK_ReadMemEx(0x1FFF0066, 0x0002 Bytes, ..., Flags = 0x02000000) -- CPU_ReadMem(2 bytes @ 0x1FFF0066) - Data: 0D 4A  returns 0x02 (0001ms, 11508ms total)
T1A14 25132:543 JLINK_ReadMemEx(0x1FFF0068, 0x003C Bytes, ..., Flags = 0x02000000) -- CPU_ReadMem(60 bytes @ 0x1FFF0068) - Data: 13 68 40 24 23 43 13 60 0B 4B 1A 68 0B 4C 24 68 ...  returns 0x3C (0001ms, 11509ms total)
T1A14 25132:544 JLINK_ReadMemEx(0x1FFF0068, 0x0002 Bytes, ..., Flags = 0x02000000) -- CPU_ReadMem(2 bytes @ 0x1FFF0068) - Data: 13 68  returns 0x02 (0001ms, 11510ms total)
T1A14 25132:545 JLINK_ReadMemEx(0x1FFF0068, 0x003C Bytes, ..., Flags = 0x02000000) -- CPU_ReadMem(60 bytes @ 0x1FFF0068) - Data: 13 68 40 24 23 43 13 60 0B 4B 1A 68 0B 4C 24 68 ...  returns 0x3C (0001ms, 11511ms total)
T1A14 25132:546 JLINK_ReadMemEx(0x1FFF0068, 0x0002 Bytes, ..., Flags = 0x02000000) -- CPU_ReadMem(2 bytes @ 0x1FFF0068) - Data: 13 68  returns 0x02 (0001ms, 11512ms total)
T1A14 25132:547 JLINK_ReadMemEx(0x1FFF006A, 0x0002 Bytes, ..., Flags = 0x02000000) -- CPU_ReadMem(2 bytes @ 0x1FFF006A) - Data: 40 24  returns 0x02 (0001ms, 11513ms total)
T1A14 25132:548 JLINK_ReadMemEx(0x1FFF006A, 0x0002 Bytes, ..., Flags = 0x02000000) -- CPU_ReadMem(2 bytes @ 0x1FFF006A) - Data: 40 24  returns 0x02 (0000ms, 11513ms total)
T1A14 25132:548 JLINK_ReadMemEx(0x1FFF006C, 0x003C Bytes, ..., Flags = 0x02000000) -- CPU_ReadMem(60 bytes @ 0x1FFF006C) - Data: 23 43 13 60 0B 4B 1A 68 0B 4C 24 68 0B 4D 2D 68 ...  returns 0x3C (0002ms, 11515ms total)
T1A14 25132:550 JLINK_ReadMemEx(0x1FFF006C, 0x0002 Bytes, ..., Flags = 0x02000000) -- CPU_ReadMem(2 bytes @ 0x1FFF006C) - Data: 23 43  returns 0x02 (0000ms, 11515ms total)
T1A14 25132:550 JLINK_ReadMemEx(0x1FFF006C, 0x003C Bytes, ..., Flags = 0x02000000) -- CPU_ReadMem(60 bytes @ 0x1FFF006C) - Data: 23 43 13 60 0B 4B 1A 68 0B 4C 24 68 0B 4D 2D 68 ...  returns 0x3C (0002ms, 11517ms total)
T1A14 25132:552 JLINK_ReadMemEx(0x1FFF006C, 0x0002 Bytes, ..., Flags = 0x02000000) -- CPU_ReadMem(2 bytes @ 0x1FFF006C) - Data: 23 43  returns 0x02 (0000ms, 11517ms total)
T1A14 25132:552 JLINK_ReadMemEx(0x1FFF006E, 0x0002 Bytes, ..., Flags = 0x02000000) -- CPU_ReadMem(2 bytes @ 0x1FFF006E) - Data: 13 60  returns 0x02 (0001ms, 11518ms total)
T1A14 25132:553 JLINK_ReadMemEx(0x1FFF006E, 0x0002 Bytes, ..., Flags = 0x02000000) -- CPU_ReadMem(2 bytes @ 0x1FFF006E) - Data: 13 60  returns 0x02 (0001ms, 11519ms total)
T1A14 25132:554 JLINK_ReadMemEx(0x1FFF0070, 0x003C Bytes, ..., Flags = 0x02000000) -- CPU_ReadMem(60 bytes @ 0x1FFF0070) - Data: 0B 4B 1A 68 0B 4C 24 68 0B 4D 2D 68 AC 42 01 D0 ...  returns 0x3C (0001ms, 11520ms total)
T1A14 25132:555 JLINK_ReadMemEx(0x1FFF0070, 0x0002 Bytes, ..., Flags = 0x02000000) -- CPU_ReadMem(2 bytes @ 0x1FFF0070) - Data: 0B 4B  returns 0x02 (0001ms, 11521ms total)
T1A14 25132:556 JLINK_ReadMemEx(0x1FFF0070, 0x003C Bytes, ..., Flags = 0x02000000) -- CPU_ReadMem(60 bytes @ 0x1FFF0070) - Data: 0B 4B 1A 68 0B 4C 24 68 0B 4D 2D 68 AC 42 01 D0 ...  returns 0x3C (0001ms, 11522ms total)
T1A14 25132:557 JLINK_ReadMemEx(0x1FFF0070, 0x0002 Bytes, ..., Flags = 0x02000000) -- CPU_ReadMem(2 bytes @ 0x1FFF0070) - Data: 0B 4B  returns 0x02 (0001ms, 11523ms total)
T1A14 25132:558 JLINK_ReadMemEx(0x1FFF0072, 0x0002 Bytes, ..., Flags = 0x02000000) -- CPU_ReadMem(2 bytes @ 0x1FFF0072) - Data: 1A 68  returns 0x02 (0001ms, 11524ms total)
T1A14 25132:559 JLINK_ReadMemEx(0x1FFF0072, 0x0002 Bytes, ..., Flags = 0x02000000) -- CPU_ReadMem(2 bytes @ 0x1FFF0072) - Data: 1A 68  returns 0x02 (0000ms, 11524ms total)
T1A14 25132:559 JLINK_ReadMemEx(0x1FFF0074, 0x003C Bytes, ..., Flags = 0x02000000) -- CPU_ReadMem(60 bytes @ 0x1FFF0074) - Data: 0B 4C 24 68 0B 4D 2D 68 AC 42 01 D0 0A 4A 12 68 ...  returns 0x3C (0002ms, 11526ms total)
T1A14 25132:561 JLINK_ReadMemEx(0x1FFF0074, 0x0002 Bytes, ..., Flags = 0x02000000) -- CPU_ReadMem(2 bytes @ 0x1FFF0074) - Data: 0B 4C  returns 0x02 (0001ms, 11527ms total)
T1A14 25132:562 JLINK_ReadMemEx(0x1FFF0074, 0x003C Bytes, ..., Flags = 0x02000000) -- CPU_ReadMem(60 bytes @ 0x1FFF0074) - Data: 0B 4C 24 68 0B 4D 2D 68 AC 42 01 D0 0A 4A 12 68 ...  returns 0x3C (0001ms, 11528ms total)
T1A14 25132:563 JLINK_ReadMemEx(0x1FFF0074, 0x0002 Bytes, ..., Flags = 0x02000000) -- CPU_ReadMem(2 bytes @ 0x1FFF0074) - Data: 0B 4C  returns 0x02 (0001ms, 11529ms total)
T1A14 25132:564 JLINK_ReadMemEx(0x1FFF0076, 0x0002 Bytes, ..., Flags = 0x02000000) -- CPU_ReadMem(2 bytes @ 0x1FFF0076) - Data: 24 68  returns 0x02 (0000ms, 11529ms total)
T1A14 25132:564 JLINK_ReadMemEx(0x1FFF0076, 0x0002 Bytes, ..., Flags = 0x02000000) -- CPU_ReadMem(2 bytes @ 0x1FFF0076) - Data: 24 68  returns 0x02 (0001ms, 11530ms total)
T1A14 25132:565 JLINK_ReadMemEx(0x1FFF0078, 0x003C Bytes, ..., Flags = 0x02000000) -- CPU_ReadMem(60 bytes @ 0x1FFF0078) - Data: 0B 4D 2D 68 AC 42 01 D0 0A 4A 12 68 1F 3A 95 46 ...  returns 0x3C (0001ms, 11531ms total)
T1A14 25132:567 JLINK_ReadMemEx(0x1FFF0078, 0x0002 Bytes, ..., Flags = 0x02000000) -- CPU_ReadMem(2 bytes @ 0x1FFF0078) - Data: 0B 4D  returns 0x02 (0000ms, 11531ms total)
T1A14 25132:567 JLINK_ReadMemEx(0x1FFF0078, 0x003C Bytes, ..., Flags = 0x02000000) -- CPU_ReadMem(60 bytes @ 0x1FFF0078) - Data: 0B 4D 2D 68 AC 42 01 D0 0A 4A 12 68 1F 3A 95 46 ...  returns 0x3C (0002ms, 11533ms total)
T1A14 25132:569 JLINK_ReadMemEx(0x1FFF0078, 0x0002 Bytes, ..., Flags = 0x02000000) -- CPU_ReadMem(2 bytes @ 0x1FFF0078) - Data: 0B 4D  returns 0x02 (0000ms, 11533ms total)
T1A14 25132:569 JLINK_ReadMemEx(0x1FFF007A, 0x0002 Bytes, ..., Flags = 0x02000000) -- CPU_ReadMem(2 bytes @ 0x1FFF007A) - Data: 2D 68  returns 0x02 (0001ms, 11534ms total)
T1A14 25132:570 JLINK_ReadMemEx(0x1FFF007A, 0x0002 Bytes, ..., Flags = 0x02000000) -- CPU_ReadMem(2 bytes @ 0x1FFF007A) - Data: 2D 68  returns 0x02 (0001ms, 11535ms total)
T1A14 25132:571 JLINK_ReadMemEx(0x1FFF007C, 0x003C Bytes, ..., Flags = 0x02000000) -- CPU_ReadMem(60 bytes @ 0x1FFF007C) - Data: AC 42 01 D0 0A 4A 12 68 1F 3A 95 46 09 4A 10 47 ...  returns 0x3C (0001ms, 11536ms total)
T1A14 25132:572 JLINK_ReadMemEx(0x1FFF007C, 0x0002 Bytes, ..., Flags = 0x02000000) -- CPU_ReadMem(2 bytes @ 0x1FFF007C) - Data: AC 42  returns 0x02 (0001ms, 11537ms total)
T5638 25135:383 JLINK_ReadMemEx(0x1FFF0040, 0x0002 Bytes, ..., Flags = 0x02000000) -- CPU_ReadMem(2 bytes @ 0x1FFF0040) - Data: 00 4A  returns 0x02 (0001ms, 11538ms total)
T5638 25135:384 JLINK_Step() -- CPU_ReadMem(2 bytes @ 0x1FFF0040) -- CPU_ReadMem(4 bytes @ 0xE000ED18) -- CPU_WriteMem(4 bytes @ 0xE000ED18) -- CPU_ReadMem(4 bytes @ 0xE000ED18) -- CPU_WriteMem(4 bytes @ 0xE000ED18) -- Not simulated -- CPU_WriteMem(4 bytes @ 0xE0001004)  returns 0x00 (0008ms, 11546ms total)
T5638 25135:392 JLINK_ReadReg(R15 (PC))  returns 0x1FFF0042 (0000ms, 11546ms total)
T5638 25135:392 JLINK_ReadReg(XPSR)  returns 0xC1000000 (0000ms, 11546ms total)
T5638 25135:392 JLINK_ReadReg(R0)  returns 0x00080000 (0000ms, 11546ms total)
T5638 25135:392 JLINK_ReadReg(R1)  returns 0x0001085F (0000ms, 11546ms total)
T5638 25135:392 JLINK_ReadReg(R2)  returns 0x1FFF0049 (0001ms, 11547ms total)
T5638 25135:393 JLINK_ReadReg(R3)  returns 0x40008000 (0000ms, 11547ms total)
T5638 25135:393 JLINK_ReadReg(R4)  returns 0x00017B50 (0000ms, 11547ms total)
T5638 25135:393 JLINK_ReadReg(R5)  returns 0x00080000 (0000ms, 11547ms total)
T5638 25135:393 JLINK_ReadReg(R6)  returns 0x40048000 (0000ms, 11547ms total)
T5638 25135:393 JLINK_ReadReg(R7)  returns 0x00000000 (0000ms, 11547ms total)
T5638 25135:393 JLINK_ReadReg(R8)  returns 0xEA6F0BDC (0000ms, 11547ms total)
T5638 25135:393 JLINK_ReadReg(R9)  returns 0xC055FBFF (0000ms, 11547ms total)
T5638 25135:393 JLINK_ReadReg(R10)  returns 0x0FFF2000 (0000ms, 11547ms total)
T5638 25135:393 JLINK_ReadReg(R11)  returns 0x00000000 (0000ms, 11547ms total)
T5638 25135:393 JLINK_ReadReg(R12)  returns 0x6A57D333 (0000ms, 11547ms total)
T5638 25135:393 JLINK_ReadReg(R13 (SP))  returns 0x10000FFC (0000ms, 11547ms total)
T5638 25135:393 JLINK_ReadReg(R14)  returns 0x00000219 (0000ms, 11547ms total)
T5638 25135:393 JLINK_ReadReg(R15 (PC))  returns 0x1FFF0042 (0000ms, 11547ms total)
T5638 25135:393 JLINK_ReadReg(XPSR)  returns 0xC1000000 (0000ms, 11547ms total)
T5638 25135:393 JLINK_ReadReg(MSP)  returns 0x10000FFC (0000ms, 11547ms total)
T5638 25135:393 JLINK_ReadReg(PSP)  returns 0xB94BA960 (0000ms, 11547ms total)
T5638 25135:393 JLINK_ReadReg(CFBP)  returns 0x00000000 (0000ms, 11547ms total)
T5638 25136:949 JLINK_ReadMemEx(0x1FFF0042, 0x0002 Bytes, ..., Flags = 0x02000000) -- CPU_ReadMem(64 bytes @ 0x1FFF0040) -- Updating DA cache (64 bytes @ 0x1FFF0040) -- Read from DA cache (2 bytes @ 0x1FFF0042) - Data: 10 47  returns 0x02 (0001ms, 11548ms total)
T5638 25136:950 JLINK_Step() -- Read from DA cache (2 bytes @ 0x1FFF0042) -- CPU_ReadMem(4 bytes @ 0xE0001004) -- Simulated  returns 0x00 (0002ms, 11550ms total)
T5638 25136:952 JLINK_ReadReg(R15 (PC))  returns 0x1FFF0048 (0000ms, 11550ms total)
T5638 25136:952 JLINK_ReadReg(XPSR)  returns 0xC1000000 (0000ms, 11550ms total)
T5638 25136:952 JLINK_ReadReg(R0)  returns 0x00080000 (0000ms, 11550ms total)
T5638 25136:952 JLINK_ReadReg(R1)  returns 0x0001085F (0000ms, 11550ms total)
T5638 25136:952 JLINK_ReadReg(R2)  returns 0x1FFF0049 (0000ms, 11550ms total)
T5638 25136:952 JLINK_ReadReg(R3)  returns 0x40008000 (0000ms, 11550ms total)
T5638 25136:952 JLINK_ReadReg(R4)  returns 0x00017B50 (0000ms, 11550ms total)
T5638 25136:952 JLINK_ReadReg(R5)  returns 0x00080000 (0000ms, 11550ms total)
T5638 25136:952 JLINK_ReadReg(R6)  returns 0x40048000 (0000ms, 11550ms total)
T5638 25136:952 JLINK_ReadReg(R7)  returns 0x00000000 (0000ms, 11550ms total)
T5638 25136:952 JLINK_ReadReg(R8)  returns 0xEA6F0BDC (0000ms, 11550ms total)
T5638 25136:952 JLINK_ReadReg(R9)  returns 0xC055FBFF (0000ms, 11550ms total)
T5638 25136:952 JLINK_ReadReg(R10)  returns 0x0FFF2000 (0000ms, 11550ms total)
T5638 25136:952 JLINK_ReadReg(R11)  returns 0x00000000 (0000ms, 11550ms total)
T5638 25136:952 JLINK_ReadReg(R12)  returns 0x6A57D333 (0000ms, 11550ms total)
T5638 25136:952 JLINK_ReadReg(R13 (SP))  returns 0x10000FFC (0000ms, 11550ms total)
T5638 25136:952 JLINK_ReadReg(R14)  returns 0x00000219 (0000ms, 11550ms total)
T5638 25136:952 JLINK_ReadReg(R15 (PC))  returns 0x1FFF0048 (0000ms, 11550ms total)
T5638 25136:952 JLINK_ReadReg(XPSR)  returns 0xC1000000 (0000ms, 11550ms total)
T5638 25136:952 JLINK_ReadReg(MSP)  returns 0x10000FFC (0001ms, 11551ms total)
T5638 25136:953 JLINK_ReadReg(PSP)  returns 0xB94BA960 (0000ms, 11551ms total)
T5638 25136:953 JLINK_ReadReg(CFBP)  returns 0x00000000 (0000ms, 11551ms total)
T5638 25137:784 JLINK_ReadMemEx(0x1FFF0048, 0x0002 Bytes, ..., Flags = 0x02000000) -- Read from DA cache (2 bytes @ 0x1FFF0048) - Data: 1A 4A  returns 0x02 (0000ms, 11551ms total)
T5638 25137:784 JLINK_Step() -- Read from DA cache (2 bytes @ 0x1FFF0048) -- Not simulated -- CPU_WriteMem(4 bytes @ 0xE0001004)  returns 0x00 (0008ms, 11559ms total)
T5638 25137:792 JLINK_ReadReg(R15 (PC))  returns 0x1FFF004A (0000ms, 11559ms total)
T5638 25137:792 JLINK_ReadReg(XPSR)  returns 0xC1000000 (0000ms, 11559ms total)
T5638 25137:792 JLINK_ReadReg(R0)  returns 0x00080000 (0000ms, 11559ms total)
T5638 25137:792 JLINK_ReadReg(R1)  returns 0x0001085F (0000ms, 11559ms total)
T5638 25137:792 JLINK_ReadReg(R2)  returns 0x400483F0 (0000ms, 11559ms total)
T5638 25137:793 JLINK_ReadReg(R3)  returns 0x40008000 (0000ms, 11559ms total)
T5638 25137:793 JLINK_ReadReg(R4)  returns 0x00017B50 (0000ms, 11559ms total)
T5638 25137:793 JLINK_ReadReg(R5)  returns 0x00080000 (0000ms, 11559ms total)
T5638 25137:793 JLINK_ReadReg(R6)  returns 0x40048000 (0000ms, 11559ms total)
T5638 25137:793 JLINK_ReadReg(R7)  returns 0x00000000 (0000ms, 11559ms total)
T5638 25137:793 JLINK_ReadReg(R8)  returns 0xEA6F0BDC (0000ms, 11559ms total)
T5638 25137:793 JLINK_ReadReg(R9)  returns 0xC055FBFF (0001ms, 11560ms total)
T5638 25137:794 JLINK_ReadReg(R10)  returns 0x0FFF2000 (0000ms, 11560ms total)
T5638 25137:794 JLINK_ReadReg(R11)  returns 0x00000000 (0000ms, 11560ms total)
T5638 25137:794 JLINK_ReadReg(R12)  returns 0x6A57D333 (0000ms, 11560ms total)
T5638 25137:794 JLINK_ReadReg(R13 (SP))  returns 0x10000FFC (0000ms, 11560ms total)
T5638 25137:794 JLINK_ReadReg(R14)  returns 0x00000219 (0000ms, 11560ms total)
T5638 25137:794 JLINK_ReadReg(R15 (PC))  returns 0x1FFF004A (0000ms, 11560ms total)
T5638 25137:794 JLINK_ReadReg(XPSR)  returns 0xC1000000 (0001ms, 11561ms total)
T5638 25137:795 JLINK_ReadReg(MSP)  returns 0x10000FFC (0000ms, 11561ms total)
T5638 25137:795 JLINK_ReadReg(PSP)  returns 0xB94BA960 (0000ms, 11561ms total)
T5638 25137:795 JLINK_ReadReg(CFBP)  returns 0x00000000 (0000ms, 11561ms total)
T5638 25138:015 JLINK_ReadMemEx(0x1FFF004A, 0x0002 Bytes, ..., Flags = 0x02000000) -- CPU_ReadMem(64 bytes @ 0x1FFF0040) -- Updating DA cache (64 bytes @ 0x1FFF0040) -- Read from DA cache (2 bytes @ 0x1FFF004A) - Data: 1B 4B  returns 0x02 (0002ms, 11563ms total)
T5638 25138:017 JLINK_Step() -- Read from DA cache (2 bytes @ 0x1FFF004A) -- CPU_ReadMem(4 bytes @ 0xE0001004) -- Not simulated  returns 0x00 (0006ms, 11569ms total)
T5638 25138:024 JLINK_ReadReg(R15 (PC))  returns 0x1FFF004C (0000ms, 11570ms total)
T5638 25138:024 JLINK_ReadReg(XPSR)  returns 0xC1000000 (0000ms, 11570ms total)
T5638 25138:024 JLINK_ReadReg(R0)  returns 0x00080000 (0000ms, 11570ms total)
T5638 25138:024 JLINK_ReadReg(R1)  returns 0x0001085F (0000ms, 11570ms total)
T5638 25138:024 JLINK_ReadReg(R2)  returns 0x400483F0 (0001ms, 11571ms total)
T5638 25138:025 JLINK_ReadReg(R3)  returns 0x1FFF00C8 (0000ms, 11571ms total)
T5638 25138:025 JLINK_ReadReg(R4)  returns 0x00017B50 (0000ms, 11571ms total)
T5638 25138:025 JLINK_ReadReg(R5)  returns 0x00080000 (0000ms, 11571ms total)
T5638 25138:025 JLINK_ReadReg(R6)  returns 0x40048000 (0000ms, 11571ms total)
T5638 25138:025 JLINK_ReadReg(R7)  returns 0x00000000 (0000ms, 11571ms total)
T5638 25138:025 JLINK_ReadReg(R8)  returns 0xEA6F0BDC (0000ms, 11571ms total)
T5638 25138:025 JLINK_ReadReg(R9)  returns 0xC055FBFF (0000ms, 11571ms total)
T5638 25138:025 JLINK_ReadReg(R10)  returns 0x0FFF2000 (0001ms, 11572ms total)
T5638 25138:026 JLINK_ReadReg(R11)  returns 0x00000000 (0000ms, 11572ms total)
T5638 25138:026 JLINK_ReadReg(R12)  returns 0x6A57D333 (0000ms, 11572ms total)
T5638 25138:026 JLINK_ReadReg(R13 (SP))  returns 0x10000FFC (0000ms, 11572ms total)
T5638 25138:026 JLINK_ReadReg(R14)  returns 0x00000219 (0000ms, 11572ms total)
T5638 25138:026 JLINK_ReadReg(R15 (PC))  returns 0x1FFF004C (0000ms, 11572ms total)
T5638 25138:026 JLINK_ReadReg(XPSR)  returns 0xC1000000 (0000ms, 11572ms total)
T5638 25138:026 JLINK_ReadReg(MSP)  returns 0x10000FFC (0000ms, 11572ms total)
T5638 25138:026 JLINK_ReadReg(PSP)  returns 0xB94BA960 (0001ms, 11573ms total)
T5638 25138:027 JLINK_ReadReg(CFBP)  returns 0x00000000 (0000ms, 11573ms total)
T5638 25138:267 JLINK_ReadMemEx(0x1FFF004C, 0x0002 Bytes, ..., Flags = 0x02000000) -- CPU_ReadMem(64 bytes @ 0x1FFF0040) -- Updating DA cache (64 bytes @ 0x1FFF0040) -- Read from DA cache (2 bytes @ 0x1FFF004C) - Data: 1B 68  returns 0x02 (0001ms, 11574ms total)
T5638 25138:268 JLINK_Step() -- Read from DA cache (2 bytes @ 0x1FFF004C) -- CPU_ReadMem(4 bytes @ 0xE0001004) -- Not simulated  returns 0x00 (0006ms, 11580ms total)
T5638 25138:274 JLINK_ReadReg(R15 (PC))  returns 0x1FFF004E (0000ms, 11580ms total)
T5638 25138:274 JLINK_ReadReg(XPSR)  returns 0xC1000000 (0000ms, 11580ms total)
T5638 25138:275 JLINK_ReadReg(R0)  returns 0x00080000 (0000ms, 11580ms total)
T5638 25138:275 JLINK_ReadReg(R1)  returns 0x0001085F (0000ms, 11580ms total)
T5638 25138:275 JLINK_ReadReg(R2)  returns 0x400483F0 (0000ms, 11580ms total)
T5638 25138:275 JLINK_ReadReg(R3)  returns 0x000002FC (0000ms, 11580ms total)
T5638 25138:275 JLINK_ReadReg(R4)  returns 0x00017B50 (0000ms, 11580ms total)
T5638 25138:275 JLINK_ReadReg(R5)  returns 0x00080000 (0000ms, 11580ms total)
T5638 25138:275 JLINK_ReadReg(R6)  returns 0x40048000 (0000ms, 11580ms total)
T5638 25138:275 JLINK_ReadReg(R7)  returns 0x00000000 (0001ms, 11581ms total)
T5638 25138:276 JLINK_ReadReg(R8)  returns 0xEA6F0BDC (0000ms, 11581ms total)
T5638 25138:276 JLINK_ReadReg(R9)  returns 0xC055FBFF (0000ms, 11581ms total)
T5638 25138:276 JLINK_ReadReg(R10)  returns 0x0FFF2000 (0000ms, 11581ms total)
T5638 25138:276 JLINK_ReadReg(R11)  returns 0x00000000 (0000ms, 11581ms total)
T5638 25138:276 JLINK_ReadReg(R12)  returns 0x6A57D333 (0000ms, 11581ms total)
T5638 25138:276 JLINK_ReadReg(R13 (SP))  returns 0x10000FFC (0000ms, 11581ms total)
T5638 25138:276 JLINK_ReadReg(R14)  returns 0x00000219 (0000ms, 11581ms total)
T5638 25138:276 JLINK_ReadReg(R15 (PC))  returns 0x1FFF004E (0001ms, 11582ms total)
T5638 25138:277 JLINK_ReadReg(XPSR)  returns 0xC1000000 (0000ms, 11582ms total)
T5638 25138:277 JLINK_ReadReg(MSP)  returns 0x10000FFC (0000ms, 11582ms total)
T5638 25138:277 JLINK_ReadReg(PSP)  returns 0xB94BA960 (0000ms, 11582ms total)
T5638 25138:277 JLINK_ReadReg(CFBP)  returns 0x00000000 (0000ms, 11582ms total)
T5638 25138:472 JLINK_ReadMemEx(0x1FFF004E, 0x0002 Bytes, ..., Flags = 0x02000000) -- CPU_ReadMem(64 bytes @ 0x1FFF0040) -- Updating DA cache (64 bytes @ 0x1FFF0040) -- Read from DA cache (2 bytes @ 0x1FFF004E) - Data: 1C 4D  returns 0x02 (0002ms, 11584ms total)
T5638 25138:474 JLINK_Step() -- Read from DA cache (2 bytes @ 0x1FFF004E) -- CPU_ReadMem(4 bytes @ 0xE0001004) -- Not simulated  returns 0x00 (0007ms, 11591ms total)
T5638 25138:481 JLINK_ReadReg(R15 (PC))  returns 0x1FFF0050 (0000ms, 11591ms total)
T5638 25138:481 JLINK_ReadReg(XPSR)  returns 0xC1000000 (0000ms, 11591ms total)
T5638 25138:482 JLINK_ReadReg(R0)  returns 0x00080000 (0000ms, 11591ms total)
T5638 25138:482 JLINK_ReadReg(R1)  returns 0x0001085F (0000ms, 11591ms total)
T5638 25138:482 JLINK_ReadReg(R2)  returns 0x400483F0 (0000ms, 11591ms total)
T5638 25138:482 JLINK_ReadReg(R3)  returns 0x000002FC (0000ms, 11591ms total)
T5638 25138:482 JLINK_ReadReg(R4)  returns 0x00017B50 (0000ms, 11591ms total)
T5638 25138:482 JLINK_ReadReg(R5)  returns 0x1FFF00D0 (0000ms, 11591ms total)
T5638 25138:482 JLINK_ReadReg(R6)  returns 0x40048000 (0000ms, 11591ms total)
T5638 25138:482 JLINK_ReadReg(R7)  returns 0x00000000 (0001ms, 11592ms total)
T5638 25138:483 JLINK_ReadReg(R8)  returns 0xEA6F0BDC (0000ms, 11592ms total)
T5638 25138:483 JLINK_ReadReg(R9)  returns 0xC055FBFF (0000ms, 11592ms total)
T5638 25138:483 JLINK_ReadReg(R10)  returns 0x0FFF2000 (0000ms, 11592ms total)
T5638 25138:483 JLINK_ReadReg(R11)  returns 0x00000000 (0000ms, 11592ms total)
T5638 25138:483 JLINK_ReadReg(R12)  returns 0x6A57D333 (0000ms, 11592ms total)
T5638 25138:483 JLINK_ReadReg(R13 (SP))  returns 0x10000FFC (0000ms, 11592ms total)
T5638 25138:484 JLINK_ReadReg(R14)  returns 0x00000219 (0000ms, 11592ms total)
T5638 25138:484 JLINK_ReadReg(R15 (PC))  returns 0x1FFF0050 (0000ms, 11592ms total)
T5638 25138:484 JLINK_ReadReg(XPSR)  returns 0xC1000000 (0000ms, 11592ms total)
T5638 25138:484 JLINK_ReadReg(MSP)  returns 0x10000FFC (0000ms, 11592ms total)
T5638 25138:484 JLINK_ReadReg(PSP)  returns 0xB94BA960 (0000ms, 11592ms total)
T5638 25138:484 JLINK_ReadReg(CFBP)  returns 0x00000000 (0000ms, 11592ms total)
T5638 25138:704 JLINK_ReadMemEx(0x1FFF0050, 0x0002 Bytes, ..., Flags = 0x02000000) -- CPU_ReadMem(64 bytes @ 0x1FFF0040) -- Updating DA cache (64 bytes @ 0x1FFF0040) -- Read from DA cache (2 bytes @ 0x1FFF0050) - Data: 2D 68  returns 0x02 (0002ms, 11594ms total)
T5638 25138:706 JLINK_Step() -- Read from DA cache (2 bytes @ 0x1FFF0050) -- CPU_ReadMem(4 bytes @ 0xE0001004) -- Not simulated  returns 0x00 (0006ms, 11600ms total)
T5638 25138:712 JLINK_ReadReg(R15 (PC))  returns 0x1FFF0052 (0001ms, 11601ms total)
T5638 25138:713 JLINK_ReadReg(XPSR)  returns 0xC1000000 (0000ms, 11601ms total)
T5638 25138:713 JLINK_ReadReg(R0)  returns 0x00080000 (0000ms, 11601ms total)
T5638 25138:713 JLINK_ReadReg(R1)  returns 0x0001085F (0000ms, 11601ms total)
T5638 25138:713 JLINK_ReadReg(R2)  returns 0x400483F0 (0000ms, 11601ms total)
T5638 25138:713 JLINK_ReadReg(R3)  returns 0x000002FC (0000ms, 11601ms total)
T5638 25138:713 JLINK_ReadReg(R4)  returns 0x00017B50 (0000ms, 11601ms total)
T5638 25138:713 JLINK_ReadReg(R5)  returns 0x43218765 (0001ms, 11602ms total)
T5638 25138:714 JLINK_ReadReg(R6)  returns 0x40048000 (0000ms, 11602ms total)
T5638 25138:714 JLINK_ReadReg(R7)  returns 0x00000000 (0000ms, 11602ms total)
T5638 25138:714 JLINK_ReadReg(R8)  returns 0xEA6F0BDC (0000ms, 11602ms total)
T5638 25138:714 JLINK_ReadReg(R9)  returns 0xC055FBFF (0000ms, 11602ms total)
T5638 25138:714 JLINK_ReadReg(R10)  returns 0x0FFF2000 (0000ms, 11602ms total)
T5638 25138:714 JLINK_ReadReg(R11)  returns 0x00000000 (0000ms, 11602ms total)
T5638 25138:714 JLINK_ReadReg(R12)  returns 0x6A57D333 (0000ms, 11602ms total)
T5638 25138:714 JLINK_ReadReg(R13 (SP))  returns 0x10000FFC (0001ms, 11603ms total)
T5638 25138:715 JLINK_ReadReg(R14)  returns 0x00000219 (0000ms, 11603ms total)
T5638 25138:715 JLINK_ReadReg(R15 (PC))  returns 0x1FFF0052 (0000ms, 11603ms total)
T5638 25138:715 JLINK_ReadReg(XPSR)  returns 0xC1000000 (0000ms, 11603ms total)
T5638 25138:715 JLINK_ReadReg(MSP)  returns 0x10000FFC (0000ms, 11603ms total)
T5638 25138:715 JLINK_ReadReg(PSP)  returns 0xB94BA960 (0000ms, 11603ms total)
T5638 25138:715 JLINK_ReadReg(CFBP)  returns 0x00000000 (0000ms, 11603ms total)
T5638 25138:918 JLINK_ReadMemEx(0x1FFF0052, 0x0002 Bytes, ..., Flags = 0x02000000) -- CPU_ReadMem(64 bytes @ 0x1FFF0040) -- Updating DA cache (64 bytes @ 0x1FFF0040) -- Read from DA cache (2 bytes @ 0x1FFF0052) - Data: 1C 4E  returns 0x02 (0002ms, 11605ms total)
T5638 25138:920 JLINK_Step() -- Read from DA cache (2 bytes @ 0x1FFF0052) -- CPU_ReadMem(4 bytes @ 0xE0001004) -- Not simulated  returns 0x00 (0006ms, 11611ms total)
T5638 25138:926 JLINK_ReadReg(R15 (PC))  returns 0x1FFF0054 (0000ms, 11611ms total)
T5638 25138:926 JLINK_ReadReg(XPSR)  returns 0xC1000000 (0000ms, 11611ms total)
T5638 25138:927 JLINK_ReadReg(R0)  returns 0x00080000 (0000ms, 11611ms total)
T5638 25138:927 JLINK_ReadReg(R1)  returns 0x0001085F (0000ms, 11611ms total)
T5638 25138:927 JLINK_ReadReg(R2)  returns 0x400483F0 (0000ms, 11611ms total)
T5638 25138:927 JLINK_ReadReg(R3)  returns 0x000002FC (0000ms, 11611ms total)
T5638 25138:927 JLINK_ReadReg(R4)  returns 0x00017B50 (0000ms, 11611ms total)
T5638 25138:927 JLINK_ReadReg(R5)  returns 0x43218765 (0000ms, 11611ms total)
T5638 25138:927 JLINK_ReadReg(R6)  returns 0x1FFF00D4 (0000ms, 11611ms total)
T5638 25138:927 JLINK_ReadReg(R7)  returns 0x00000000 (0001ms, 11612ms total)
T5638 25138:928 JLINK_ReadReg(R8)  returns 0xEA6F0BDC (0000ms, 11612ms total)
T5638 25138:928 JLINK_ReadReg(R9)  returns 0xC055FBFF (0000ms, 11612ms total)
T5638 25138:928 JLINK_ReadReg(R10)  returns 0x0FFF2000 (0000ms, 11612ms total)
T5638 25138:928 JLINK_ReadReg(R11)  returns 0x00000000 (0000ms, 11612ms total)
T5638 25138:928 JLINK_ReadReg(R12)  returns 0x6A57D333 (0000ms, 11612ms total)
T5638 25138:928 JLINK_ReadReg(R13 (SP))  returns 0x10000FFC (0000ms, 11612ms total)
T5638 25138:928 JLINK_ReadReg(R14)  returns 0x00000219 (0000ms, 11612ms total)
T5638 25138:928 JLINK_ReadReg(R15 (PC))  returns 0x1FFF0054 (0001ms, 11613ms total)
T5638 25138:929 JLINK_ReadReg(XPSR)  returns 0xC1000000 (0000ms, 11613ms total)
T5638 25138:929 JLINK_ReadReg(MSP)  returns 0x10000FFC (0000ms, 11613ms total)
T5638 25138:929 JLINK_ReadReg(PSP)  returns 0xB94BA960 (0000ms, 11613ms total)
T5638 25138:929 JLINK_ReadReg(CFBP)  returns 0x00000000 (0000ms, 11613ms total)
T5638 25139:176 JLINK_ReadMemEx(0x1FFF0054, 0x0002 Bytes, ..., Flags = 0x02000000) -- CPU_ReadMem(64 bytes @ 0x1FFF0040) -- Updating DA cache (64 bytes @ 0x1FFF0040) -- Read from DA cache (2 bytes @ 0x1FFF0054) - Data: 36 68  returns 0x02 (0002ms, 11615ms total)
T5638 25139:178 JLINK_Step() -- Read from DA cache (2 bytes @ 0x1FFF0054) -- CPU_ReadMem(4 bytes @ 0xE0001004) -- Not simulated  returns 0x00 (0006ms, 11621ms total)
T5638 25139:184 JLINK_ReadReg(R15 (PC))  returns 0x1FFF0056 (0000ms, 11621ms total)
T5638 25139:184 JLINK_ReadReg(XPSR)  returns 0xC1000000 (0000ms, 11621ms total)
T5638 25139:185 JLINK_ReadReg(R0)  returns 0x00080000 (0000ms, 11621ms total)
T5638 25139:185 JLINK_ReadReg(R1)  returns 0x0001085F (0000ms, 11621ms total)
T5638 25139:185 JLINK_ReadReg(R2)  returns 0x400483F0 (0000ms, 11621ms total)
T5638 25139:185 JLINK_ReadReg(R3)  returns 0x000002FC (0000ms, 11621ms total)
T5638 25139:185 JLINK_ReadReg(R4)  returns 0x00017B50 (0000ms, 11621ms total)
T5638 25139:185 JLINK_ReadReg(R5)  returns 0x43218765 (0000ms, 11621ms total)
T5638 25139:185 JLINK_ReadReg(R6)  returns 0x12345678 (0000ms, 11621ms total)
T5638 25139:185 JLINK_ReadReg(R7)  returns 0x00000000 (0001ms, 11622ms total)
T5638 25139:186 JLINK_ReadReg(R8)  returns 0xEA6F0BDC (0000ms, 11622ms total)
T5638 25139:186 JLINK_ReadReg(R9)  returns 0xC055FBFF (0000ms, 11622ms total)
T5638 25139:186 JLINK_ReadReg(R10)  returns 0x0FFF2000 (0000ms, 11622ms total)
T5638 25139:186 JLINK_ReadReg(R11)  returns 0x00000000 (0000ms, 11622ms total)
T5638 25139:186 JLINK_ReadReg(R12)  returns 0x6A57D333 (0000ms, 11622ms total)
T5638 25139:186 JLINK_ReadReg(R13 (SP))  returns 0x10000FFC (0000ms, 11622ms total)
T5638 25139:186 JLINK_ReadReg(R14)  returns 0x00000219 (0000ms, 11622ms total)
T5638 25139:186 JLINK_ReadReg(R15 (PC))  returns 0x1FFF0056 (0001ms, 11623ms total)
T5638 25139:187 JLINK_ReadReg(XPSR)  returns 0xC1000000 (0000ms, 11623ms total)
T5638 25139:187 JLINK_ReadReg(MSP)  returns 0x10000FFC (0000ms, 11623ms total)
T5638 25139:187 JLINK_ReadReg(PSP)  returns 0xB94BA960 (0000ms, 11623ms total)
T5638 25139:187 JLINK_ReadReg(CFBP)  returns 0x00000000 (0000ms, 11623ms total)
T5638 25139:405 JLINK_ReadMemEx(0x1FFF0056, 0x0002 Bytes, ..., Flags = 0x02000000) -- CPU_ReadMem(64 bytes @ 0x1FFF0040) -- Updating DA cache (64 bytes @ 0x1FFF0040) -- Read from DA cache (2 bytes @ 0x1FFF0056) - Data: 1C 68  returns 0x02 (0002ms, 11625ms total)
T5638 25139:407 JLINK_Step() -- Read from DA cache (2 bytes @ 0x1FFF0056) -- CPU_ReadMem(4 bytes @ 0xE0001004) -- CPU_ReadMem(64 bytes @ 0x000002C0) -- Updating C cache (64 bytes @ 0x000002C0) -- Read from C cache (4 bytes @ 0x000002FC) -- Simulated  returns 0x00 (0003ms, 11628ms total)
T5638 25139:410 JLINK_ReadReg(R15 (PC))  returns 0x1FFF0058 (0000ms, 11628ms total)
T5638 25139:410 JLINK_ReadReg(XPSR)  returns 0xC1000000 (0000ms, 11628ms total)
T5638 25139:410 JLINK_ReadReg(R0)  returns 0x00080000 (0000ms, 11628ms total)
T5638 25139:410 JLINK_ReadReg(R1)  returns 0x0001085F (0000ms, 11628ms total)
T5638 25139:411 JLINK_ReadReg(R2)  returns 0x400483F0 (0000ms, 11629ms total)
T5638 25139:411 JLINK_ReadReg(R3)  returns 0x000002FC (0000ms, 11629ms total)
T5638 25139:411 JLINK_ReadReg(R4)  returns 0x6458645A (0000ms, 11629ms total)
T5638 25139:411 JLINK_ReadReg(R5)  returns 0x43218765 (0000ms, 11629ms total)
T5638 25139:411 JLINK_ReadReg(R6)  returns 0x12345678 (0000ms, 11629ms total)
T5638 25139:411 JLINK_ReadReg(R7)  returns 0x00000000 (0000ms, 11629ms total)
T5638 25139:411 JLINK_ReadReg(R8)  returns 0xEA6F0BDC (0000ms, 11629ms total)
T5638 25139:411 JLINK_ReadReg(R9)  returns 0xC055FBFF (0001ms, 11630ms total)
T5638 25139:412 JLINK_ReadReg(R10)  returns 0x0FFF2000 (0000ms, 11630ms total)
T5638 25139:412 JLINK_ReadReg(R11)  returns 0x00000000 (0000ms, 11630ms total)
T5638 25139:412 JLINK_ReadReg(R12)  returns 0x6A57D333 (0000ms, 11630ms total)
T5638 25139:412 JLINK_ReadReg(R13 (SP))  returns 0x10000FFC (0000ms, 11630ms total)
T5638 25139:412 JLINK_ReadReg(R14)  returns 0x00000219 (0000ms, 11630ms total)
T5638 25139:412 JLINK_ReadReg(R15 (PC))  returns 0x1FFF0058 (0000ms, 11630ms total)
T5638 25139:412 JLINK_ReadReg(XPSR)  returns 0xC1000000 (0000ms, 11630ms total)
T5638 25139:412 JLINK_ReadReg(MSP)  returns 0x10000FFC (0001ms, 11631ms total)
T5638 25139:413 JLINK_ReadReg(PSP)  returns 0xB94BA960 (0000ms, 11631ms total)
T5638 25139:413 JLINK_ReadReg(CFBP)  returns 0x00000000 (0000ms, 11631ms total)
T5638 25139:649 JLINK_ReadMemEx(0x1FFF0058, 0x0002 Bytes, ..., Flags = 0x02000000) -- Read from DA cache (2 bytes @ 0x1FFF0058) - Data: AC 42  returns 0x02 (0000ms, 11631ms total)
T5638 25139:649 JLINK_Step() -- Read from DA cache (2 bytes @ 0x1FFF0058) -- Simulated  returns 0x00 (0000ms, 11631ms total)
T5638 25139:649 JLINK_ReadReg(R15 (PC))  returns 0x1FFF005A (0000ms, 11631ms total)
T5638 25139:649 JLINK_ReadReg(XPSR)  returns 0x21000000 (0000ms, 11631ms total)
T5638 25139:649 JLINK_ReadReg(R0)  returns 0x00080000 (0001ms, 11632ms total)
T5638 25139:650 JLINK_ReadReg(R1)  returns 0x0001085F (0000ms, 11632ms total)
T5638 25139:650 JLINK_ReadReg(R2)  returns 0x400483F0 (0000ms, 11632ms total)
T5638 25139:650 JLINK_ReadReg(R3)  returns 0x000002FC (0000ms, 11632ms total)
T5638 25139:650 JLINK_ReadReg(R4)  returns 0x6458645A (0000ms, 11632ms total)
T5638 25139:650 JLINK_ReadReg(R5)  returns 0x43218765 (0000ms, 11632ms total)
T5638 25139:650 JLINK_ReadReg(R6)  returns 0x12345678 (0001ms, 11633ms total)
T5638 25139:651 JLINK_ReadReg(R7)  returns 0x00000000 (0000ms, 11633ms total)
T5638 25139:651 JLINK_ReadReg(R8)  returns 0xEA6F0BDC (0000ms, 11633ms total)
T5638 25139:651 JLINK_ReadReg(R9)  returns 0xC055FBFF (0000ms, 11633ms total)
T5638 25139:651 JLINK_ReadReg(R10)  returns 0x0FFF2000 (0000ms, 11633ms total)
T5638 25139:651 JLINK_ReadReg(R11)  returns 0x00000000 (0000ms, 11633ms total)
T5638 25139:651 JLINK_ReadReg(R12)  returns 0x6A57D333 (0000ms, 11633ms total)
T5638 25139:651 JLINK_ReadReg(R13 (SP))  returns 0x10000FFC (0000ms, 11633ms total)
T5638 25139:651 JLINK_ReadReg(R14)  returns 0x00000219 (0001ms, 11634ms total)
T5638 25139:652 JLINK_ReadReg(R15 (PC))  returns 0x1FFF005A (0000ms, 11634ms total)
T5638 25139:652 JLINK_ReadReg(XPSR)  returns 0x21000000 (0000ms, 11634ms total)
T5638 25139:652 JLINK_ReadReg(MSP)  returns 0x10000FFC (0000ms, 11634ms total)
T5638 25139:652 JLINK_ReadReg(PSP)  returns 0xB94BA960 (0000ms, 11634ms total)
T5638 25139:652 JLINK_ReadReg(CFBP)  returns 0x00000000 (0000ms, 11634ms total)
T5638 25139:857 JLINK_ReadMemEx(0x1FFF005A, 0x0002 Bytes, ..., Flags = 0x02000000) -- Read from DA cache (2 bytes @ 0x1FFF005A) - Data: 01 D0  returns 0x02 (0000ms, 11634ms total)
T5638 25139:857 JLINK_Step() -- Read from DA cache (2 bytes @ 0x1FFF005A) -- Simulated  returns 0x00 (0001ms, 11635ms total)
T5638 25139:858 JLINK_ReadReg(R15 (PC))  returns 0x1FFF005C (0000ms, 11635ms total)
